RTDS Simulation, 0,1999
48,18A,30D
1,IBURA1,,,Amps,2.53387E-4,-3.74018,0,0,65535,1.0,1.0,P
2,IBURB1,,,Amps,1.47218E-5,-0.757405,0,0,65535,1.0,1.0,P
3,IBURC1,,,Amps,1.28464E-5,-0.528325,0,0,65535,1.0,1.0,P
4,IBURA2,,,Amps,5.78734E-11,0.0,0,0,65535,1.0,1.0,P
5,IBURB2,,,Amps,7.00573E-11,-4.59121E-6,0,0,65535,1.0,1.0,P
6,IBURC2,,,Amps,9.29605E-11,0.0,0,0,65535,1.0,1.0,P
7,IBUR_SUM12_A,,,,2.53387E-4,-3.74018,0,0,65535,1.0,1.0,P
8,IBUR_SUM12_B,,,,1.47218E-5,-0.757408,0,0,65535,1.0,1.0,P
9,IBUR_SUM12_C,,,,1.28464E-5,-0.528321,0,0,65535,1.0,1.0,P
10,IBURA3,,,Amps,9.25679E-11,-6.06644E-6,0,0,65535,1.0,1.0,P
11,IBURB3,,,Amps,1.29845E-10,0.0,0,0,65535,1.0,1.0,P
12,IBURC3,,,Amps,1.68544E-10,-1.10455E-5,0,0,65535,1.0,1.0,P
13,Ua_SUB_A_VT2,,,,1.3454E-4,-3.71091,0,0,65535,1.0,1.0,P
14,Ub_SUB_A_VT2,,,,0.00354368,-132.139,0,0,65535,1.0,1.0,P
15,Uc_SUB_A_VT2,,,,0.00315116,-104.952,0,0,65535,1.0,1.0,P
16,Ua_SUB_B_VT2,,,,9.56735E-4,-30.6778,0,0,65535,1.0,1.0,P
17,Ub_SUB_B_VT2,,,,0.00354534,-147.825,0,0,65535,1.0,1.0,P
18,Uc_SUB_B_VT2,,,,0.00367716,-88.1783,0,0,65535,1.0,1.0,P
1,BRK1,0,,0
2,BRK2,0,,0
3,BRK3,0,,0
4,BRK4,0,,0
5,BRK5,0,,0
6,BRK6,0,,0
7,BRK7,0,,0
8,BRK8,0,,0
9,BRK9,0,,0
10,BRK10,0,,0
11,FLT1,0,,0
12,FLT2,0,,0
13,FLT3,0,,0
14,FLT4,0,,0
15,FLT5,0,,0
16,FLT6,0,,0
17,FLT7,0,,0
18,TRIP_NVCHZ_1,0,,0
19,TRIP_RNMOP_1,0,,0
20,TRIP_RS_1,0,,0
21,TRIP_I2t_1,0,,0
22,TRIP_NVCHZ_2,0,,0
23,TRIP_RNMOP_2,0,,0
24,TRIP_RS_2,0,,0
25,TRIP_I2t_2,0,,0
26,START_VCH_PP_1,0,,0
27,START_VCH_PP_2,0,,0
28,RECV_VCH_PP_1,0,,0
29,RECV_VCH_PP_2,0,,0
30,start_test,0,,0
50.0
1
20000.0,14000
19/07/2022,13:54:51.690000
19/07/2022,13:54:51.837000
ASCII
1
1,0,14760,51447,41126,51363,25878,31426,14760,51447,41126,28102,56032,357,27599,37289,33304,32067,41696,23978,0,0,0,1,1,1,1,0,1,1,0,0,0,0,0,0,0,0,0,0,0,0,0,0,0,0,0,0,0,0
2,50,14760,51447,41126,51092,26222,31335,14760,51447,41126,27883,56212,339,27598,37289,33304,32067,41696,23978,0,0,0,1,1,1,1,0,1,1,0,0,0,0,0,0,0,0,0,0,0,0,0,0,0,0,0,0,0,0
3,100,14760,51447,41126,50815,26565,31248,14760,51447,41126,27662,56390,324,27598,37289,33304,32067,41696,23978,0,0,0,1,1,1,1,0,1,1,0,0,0,0,0,0,0,0,0,0,0,0,0,0,0,0,0,0,0,0
4,150,14760,51447,41126,50534,26908,31165,14760,51447,41126,27438,56568,310,27597,37289,33304,32067,41696,23978,0,0,0,1,1,1,1,0,1,1,0,0,0,0,0,0,0,0,0,0,0,0,0,0,0,0,0,0,0,0
5,200,14760,51447,41126,50248,27249,31087,14760,51447,41126,27211,56743,299,27597,37289,33304,32067,41696,23978,0,0,0,1,1,1,1,0,1,1,0,0,0,0,0,0,0,0,0,0,0,0,0,0,0,0,0,0,0,0
6,250,14760,51447,41126,49957,27588,31012,14760,51447,41126,26982,56918,291,27596,37289,33304,32067,41696,23978,0,0,0,1,1,1,1,0,1,1,0,0,0,0,0,0,0,0,0,0,0,0,0,0,0,0,0,0,0,0
7,300,14760,51447,41126,49661,27927,30941,14760,51447,41126,26751,57091,284,27595,37289,33304,32067,41696,23978,0,0,0,1,1,1,1,0,1,1,0,0,0,0,0,0,0,0,0,0,0,0,0,0,0,0,0,0,0,0
8,350,14760,51447,41126,49361,28264,30874,14760,51447,41126,26517,57263,280,27595,37289,33304,32067,41696,23978,0,0,0,1,1,1,1,0,1,1,0,0,0,0,0,0,0,0,0,0,0,0,0,0,0,0,0,0,0,0
9,400,14760,51447,41126,49056,28599,30811,14760,51447,41126,26282,57433,279,27594,37289,33304,32066,41696,23978,0,0,0,1,1,1,1,0,1,1,0,0,0,0,0,0,0,0,0,0,0,0,0,0,0,0,0,0,0,0
10,450,14760,51447,41126,48746,28933,30752,14760,51447,41126,26044,57601,280,27594,37289,33304,32066,41696,23978,0,0,0,1,1,1,1,0,1,1,0,0,0,0,0,0,0,0,0,0,0,0,0,0,0,0,0,0,0,0
11,500,14760,51447,41126,48432,29266,30697,14760,51447,41126,25804,57768,283,27593,37289,33304,32066,41696,23978,0,0,0,1,1,1,1,0,1,1,0,0,0,0,0,0,0,0,0,0,0,0,0,0,0,0,0,0,0,0
12,550,14760,51447,41126,48113,29596,30646,14760,51447,41126,25561,57934,288,27592,37289,33304,32066,41696,23978,0,0,0,1,1,1,1,0,1,1,0,0,0,0,0,0,0,0,0,0,0,0,0,0,0,0,0,0,0,0
13,600,14760,51447,41126,47790,29925,30599,14760,51447,41126,25317,58098,296,27592,37289,33304,32066,41696,23978,0,0,0,1,1,1,1,0,1,1,0,0,0,0,0,0,0,0,0,0,0,0,0,0,0,0,0,0,0,0
14,650,14760,51447,41126,47463,30252,30557,14760,51447,41126,25071,58260,306,27591,37289,33304,32066,41696,23978,0,0,0,1,1,1,1,0,1,1,0,0,0,0,0,0,0,0,0,0,0,0,0,0,0,0,0,0,0,0
15,700,14760,51447,41126,47132,30577,30518,14760,51447,41126,24824,58420,319,27591,37289,33304,32066,41696,23978,0,0,0,1,1,1,1,0,1,1,0,0,0,0,0,0,0,0,0,0,0,0,0,0,0,0,0,0,0,0
16,750,14760,51447,41126,46796,30900,30484,14760,51447,41126,24574,58579,334,27590,37289,33304,32066,41696,23978,0,0,0,1,1,1,1,0,1,1,0,0,0,0,0,0,0,0,0,0,0,0,0,0,0,0,0,0,0,0
17,800,14760,51447,41126,46457,31221,30453,14760,51447,41126,24322,58736,351,27589,37289,33304,32066,41696,23978,0,0,0,1,1,1,1,0,1,1,0,0,0,0,0,0,0,0,0,0,0,0,0,0,0,0,0,0,0,0
18,850,14760,51447,41126,46113,31539,30427,14760,51447,41126,24069,58891,371,27589,37289,33304,32066,41696,23978,0,0,0,1,1,1,1,0,1,1,0,0,0,0,0,0,0,0,0,0,0,0,0,0,0,0,0,0,0,0
19,900,14760,51447,41126,45766,31855,30405,14760,51447,41126,23815,59044,393,27588,37289,33304,32066,41696,23978,0,0,0,1,1,1,1,0,1,1,0,0,0,0,0,0,0,0,0,0,0,0,0,0,0,0,0,0,0,0
20,950,14760,51447,41126,45415,32169,30387,14760,51447,41126,23558,59195,417,27588,37289,33304,32066,41696,23978,0,0,0,1,1,1,1,0,1,1,0,0,0,0,0,0,0,0,0,0,0,0,0,0,0,0,0,0,0,0
21,1000,14760,51447,41126,45061,32481,30373,14760,51447,41126,23301,59344,444,27587,37289,33304,32065,41696,23978,0,0,0,1,1,1,1,0,1,1,0,0,0,0,0,0,0,0,0,0,0,0,0,0,0,0,0,0,0,0
22,1050,14760,51447,41126,44702,32789,30363,14760,51447,41126,23041,59491,473,27586,37289,33304,32065,41696,23978,0,0,0,1,1,1,1,0,1,1,0,0,0,0,0,0,0,0,0,0,0,0,0,0,0,0,0,0,0,0
23,1100,14760,51447,41126,44341,33096,30357,14760,51447,41126,22781,59636,504,27586,37289,33304,32065,41696,23978,0,0,0,1,1,1,1,0,1,1,0,0,0,0,0,0,0,0,0,0,0,0,0,0,0,0,0,0,0,0
24,1150,14760,51447,41126,43976,33399,30356,14760,51447,41126,22519,59779,538,27585,37289,33304,32065,41696,23978,0,0,0,1,1,1,1,0,1,1,0,0,0,0,0,0,0,0,0,0,0,0,0,0,0,0,0,0,0,0
25,1200,14760,51447,41126,43607,33700,30359,14760,51447,41126,22256,59920,574,27584,37289,33304,32065,41696,23978,0,0,0,1,1,1,1,0,1,1,0,0,0,0,0,0,0,0,0,0,0,0,0,0,0,0,0,0,0,0
26,1250,14760,51447,41126,43236,33998,30365,14760,51447,41126,21992,60059,612,27584,37289,33304,32065,41696,23978,0,0,0,1,1,1,1,0,1,1,0,0,0,0,0,0,0,0,0,0,0,0,0,0,0,0,0,0,0,0
27,1300,14760,51447,41126,42861,34293,30376,14760,51447,41126,21726,60196,652,27583,37289,33304,32065,41696,23978,0,0,0,1,1,1,1,0,1,1,0,0,0,0,0,0,0,0,0,0,0,0,0,0,0,0,0,0,0,0
28,1350,14760,51447,41126,42483,34585,30391,14760,51447,41126,21460,60330,695,27583,37290,33304,32065,41696,23978,0,0,0,1,1,1,1,0,1,1,0,0,0,0,0,0,0,0,0,0,0,0,0,0,0,0,0,0,0,0
29,1400,14760,51447,41126,42102,34874,30410,14760,51447,41126,21193,60463,740,27582,37290,33304,32065,41696,23978,0,0,0,1,1,1,1,0,1,1,0,0,0,0,0,0,0,0,0,0,0,0,0,0,0,0,0,0,0,0
30,1450,14760,51447,41126,41719,35160,30434,14760,51447,41126,20924,60593,787,27581,37290,33304,32065,41696,23978,0,0,0,1,1,1,1,0,1,1,0,0,0,0,0,0,0,0,0,0,0,0,0,0,0,0,0,0,0,0
31,1500,14760,51447,41126,41332,35443,30461,14760,51447,41126,20655,60720,837,27581,37290,33304,32065,41696,23978,0,0,0,1,1,1,1,0,1,1,0,0,0,0,0,0,0,0,0,0,0,0,0,0,0,0,0,0,0,0
32,1550,14760,51447,41126,40943,35723,30493,14760,51447,41126,20386,60845,888,27580,37290,33304,32064,41696,23978,0,0,0,1,1,1,1,0,1,1,0,0,0,0,0,0,0,0,0,0,0,0,0,0,0,0,0,0,0,0
33,1600,14760,51447,41126,40552,35999,30528,14760,51447,41126,20115,60968,942,27579,37290,33304,32064,41696,23978,0,0,0,1,1,1,1,0,1,1,0,0,0,0,0,0,0,0,0,0,0,0,0,0,0,0,0,0,0,0
34,1650,14760,51447,41126,40158,36272,30568,14760,51447,41126,19844,61089,998,27579,37290,33304,32064,41696,23978,0,0,0,1,1,1,1,0,1,1,0,0,0,0,0,0,0,0,0,0,0,0,0,0,0,0,0,0,0,0
35,1700,14760,51447,41126,39762,36541,30612,14760,51447,41126,19572,61207,1057,27578,37290,33304,32064,41696,23978,0,0,0,1,1,1,1,0,1,1,0,0,0,0,0,0,0,0,0,0,0,0,0,0,0,0,0,0,0,0
36,1750,14760,51447,41126,39363,36807,30659,14760,51447,41126,19300,61323,1117,27578,37290,33304,32064,41696,23978,0,0,0,1,1,1,1,0,1,1,0,0,0,0,0,0,0,0,0,0,0,0,0,0,0,0,0,0,0,0
37,1800,14760,51447,41126,38962,37069,30711,14760,51447,41126,19027,61436,1180,27577,37290,33304,32064,41696,23978,0,0,0,1,1,1,1,0,1,1,0,0,0,0,0,0,0,0,0,0,0,0,0,0,0,0,0,0,0,0
38,1850,14760,51447,41126,38559,37327,30767,14760,51447,41126,18754,61546,1245,27576,37290,33304,32064,41696,23978,0,0,0,1,1,1,1,0,1,1,0,0,0,0,0,0,0,0,0,0,0,0,0,0,0,0,0,0,0,0
39,1900,14760,51447,41126,38154,37582,30827,14760,51447,41126,18480,61655,1312,27576,37290,33304,32064,41696,23978,0,0,0,1,1,1,1,0,1,1,0,0,0,0,0,0,0,0,0,0,0,0,0,0,0,0,0,0,0,0
40,1950,14760,51447,41126,37748,37833,30891,14760,51447,41126,18207,61760,1381,27575,37290,33304,32064,41696,23978,0,0,0,1,1,1,1,0,1,1,0,0,0,0,0,0,0,0,0,0,0,0,0,0,0,0,0,0,0,0
41,2000,14760,51447,41126,37339,38080,30959,14760,51447,41126,17933,61863,1452,27575,37290,33304,32064,41696,23979,0,0,0,1,1,1,1,0,1,1,0,0,0,0,0,0,0,0,0,0,0,0,0,0,0,0,0,0,0,0
42,2050,14760,51447,41126,36929,38324,31031,14760,51447,41126,17659,61963,1525,27574,37290,33304,32064,41696,23979,0,0,0,1,1,1,1,0,1,1,0,0,0,0,0,0,0,0,0,0,0,0,0,0,0,0,0,0,0,0
43,2100,14760,51447,41126,36517,38563,31107,14760,51447,41126,17385,62061,1600,27573,37290,33304,32064,41696,23979,0,0,0,1,1,1,1,0,1,1,0,0,0,0,0,0,0,0,0,0,0,0,0,0,0,0,0,0,0,0
44,2150,14760,51447,41126,36104,38798,31187,14760,51447,41126,17111,62156,1677,27573,37290,33304,32063,41697,23979,0,0,0,1,1,1,1,0,1,1,0,0,0,0,0,0,0,0,0,0,0,0,0,0,0,0,0,0,0,0
45,2200,14760,51447,41126,35690,39029,31271,14760,51447,41126,16837,62248,1757,27572,37290,33304,32063,41697,23979,0,0,0,1,1,1,1,0,1,1,0,0,0,0,0,0,0,0,0,0,0,0,0,0,0,0,0,0,0,0
46,2250,14760,51447,41126,35274,39257,31359,14760,51447,41126,16564,62338,1838,27572,37290,33304,32063,41697,23979,0,0,0,1,1,1,1,0,1,1,0,0,0,0,0,0,0,0,0,0,0,0,0,0,0,0,0,0,0,0
47,2300,14760,51447,41126,34857,39479,31450,14760,51447,41126,16290,62425,1921,27571,37290,33304,32063,41697,23979,0,0,0,1,1,1,1,0,1,1,0,0,0,0,0,0,0,0,0,0,0,0,0,0,0,0,0,0,0,0
48,2350,14760,51447,41126,34439,39698,31546,14760,51447,41126,16017,62509,2007,27570,37290,33304,32063,41697,23979,0,0,0,1,1,1,1,0,1,1,0,0,0,0,0,0,0,0,0,0,0,0,0,0,0,0,0,0,0,0
49,2400,14760,51447,41126,34020,39912,31645,14760,51447,41126,15744,62590,2094,27570,37290,33305,32063,41697,23979,0,0,0,1,1,1,1,0,1,1,0,0,0,0,0,0,0,0,0,0,0,0,0,0,0,0,0,0,0,0
50,2450,14760,51447,41126,33600,40122,31749,14760,51447,41126,15472,62669,2183,27569,37290,33305,32063,41697,23979,0,0,0,1,1,1,1,0,1,1,0,0,0,0,0,0,0,0,0,0,0,0,0,0,0,0,0,0,0,0
51,2500,14760,51447,41126,33179,40328,31856,14760,51447,41126,15200,62744,2274,27569,37290,33305,32063,41697,23979,0,0,0,1,1,1,1,0,1,1,0,0,0,0,0,0,0,0,0,0,0,0,0,0,0,0,0,0,0,0
52,2550,14760,51447,41126,32758,40529,31966,14760,51447,41126,14929,62817,2367,27568,37290,33305,32063,41697,23979,0,0,0,1,1,1,1,0,1,1,0,0,0,0,0,0,0,0,0,0,0,0,0,0,0,0,0,0,0,0
53,2600,14760,51447,41126,32336,40725,32081,14760,51447,41126,14658,62887,2461,27568,37290,33305,32063,41697,23979,0,0,0,1,1,1,1,0,1,1,0,0,0,0,0,0,0,0,0,0,0,0,0,0,0,0,0,0,0,0
54,2650,14760,51447,41126,31914,40917,32199,14760,51447,41126,14388,62954,2558,27567,37290,33305,32063,41697,23979,0,0,0,1,1,1,1,0,1,1,0,0,0,0,0,0,0,0,0,0,0,0,0,0,0,0,0,0,0,0
55,2700,14760,51447,41126,31491,41105,32321,14760,51447,41126,14119,63019,2656,27566,37290,33305,32063,41697,23979,0,0,0,1,1,1,1,0,1,1,0,0,0,0,0,0,0,0,0,0,0,0,0,0,0,0,0,0,0,0
56,2750,14760,51447,41126,31069,41287,32446,14760,51447,41126,13851,63080,2756,27566,37290,33305,32062,41697,23979,0,0,0,1,1,1,1,0,1,1,0,0,0,0,0,0,0,0,0,0,0,0,0,0,0,0,0,0,0,0
57,2800,14760,51447,41126,30646,41465,32575,14760,51447,41126,13584,63138,2858,27565,37290,33305,32062,41697,23979,0,0,0,1,1,1,1,0,1,1,0,0,0,0,0,0,0,0,0,0,0,0,0,0,0,0,0,0,0,0
58,2850,14760,51447,41126,30223,41638,32708,14760,51447,41126,13317,63194,2962,27565,37290,33305,32062,41697,23979,0,0,0,1,1,1,1,0,1,1,0,0,0,0,0,0,0,0,0,0,0,0,0,0,0,0,0,0,0,0
59,2900,14760,51447,41126,29800,41807,32844,14760,51447,41126,13052,63246,3067,27564,37290,33305,32062,41697,23979,0,0,0,1,1,1,1,0,1,1,0,0,0,0,0,0,0,0,0,0,0,0,0,0,0,0,0,0,0,0
60,2950,14760,51447,41126,29377,41971,32984,14760,51447,41126,12788,63296,3174,27564,37290,33305,32062,41697,23979,0,0,0,1,1,1,1,0,1,1,0,0,0,0,0,0,0,0,0,0,0,0,0,0,0,0,0,0,0,0
61,3000,14760,51447,41126,28955,42129,33127,14760,51447,41126,12525,63343,3283,27563,37290,33305,32062,41697,23979,0,0,0,1,1,1,1,0,1,1,0,0,0,0,0,0,0,0,0,0,0,0,0,0,0,0,0,0,0,0
62,3050,14760,51447,41126,28533,42283,33274,14760,51447,41126,12263,63386,3393,27563,37290,33305,32062,41697,23979,0,0,0,1,1,1,1,0,1,1,0,0,0,0,0,0,0,0,0,0,0,0,0,0,0,0,0,0,0,0
63,3100,14760,51447,41126,28111,42432,33424,14760,51447,41126,12002,63427,3505,27562,37290,33305,32062,41697,23979,0,0,0,1,1,1,1,0,1,1,0,0,0,0,0,0,0,0,0,0,0,0,0,0,0,0,0,0,0,0
64,3150,14760,51447,41126,27690,42576,33578,14760,51447,41126,11743,63464,3618,27562,37290,33305,32062,41697,23979,0,0,0,1,1,1,1,0,1,1,0,0,0,0,0,0,0,0,0,0,0,0,0,0,0,0,0,0,0,0
65,3200,14760,51447,41126,27270,42715,33735,14760,51447,41126,11485,63499,3733,27561,37290,33305,32062,41697,23979,0,0,0,1,1,1,1,0,1,1,0,0,0,0,0,0,0,0,0,0,0,0,0,0,0,0,0,0,0,0
66,3250,14760,51447,41126,26851,42849,33895,14760,51447,41126,11229,63531,3850,27561,37290,33305,32062,41697,23979,0,0,0,1,1,1,1,0,1,1,0,0,0,0,0,0,0,0,0,0,0,0,0,0,0,0,0,0,0,0
67,3300,14760,51447,41126,26432,42978,34058,14760,51447,41126,10974,63559,3967,27560,37290,33305,32062,41697,23979,0,0,0,1,1,1,1,0,1,1,0,0,0,0,0,0,0,0,0,0,0,0,0,0,0,0,0,0,0,0
68,3350,14760,51447,41126,26015,43101,34225,14760,51447,41126,10721,63585,4087,27560,37290,33305,32062,41697,23979,0,0,0,1,1,1,1,0,1,1,0,0,0,0,0,0,0,0,0,0,0,0,0,0,0,0,0,0,0,0
69,3400,14760,51447,41126,25599,43220,34395,14760,51447,41126,10470,63607,4208,27559,37290,33305,32062,41697,23979,0,0,0,1,1,1,1,0,1,1,0,0,0,0,0,0,0,0,0,0,0,0,0,0,0,0,0,0,0,0
70,3450,14760,51447,41126,25184,43333,34568,14760,51447,41126,10220,63626,4330,27559,37290,33305,32061,41697,23979,0,0,0,1,1,1,1,0,1,1,0,0,0,0,0,0,0,0,0,0,0,0,0,0,0,0,0,0,0,0
71,3500,14760,51447,41126,24770,43441,34744,14760,51447,41126,9972,63643,4453,27558,37290,33305,32061,41697,23979,0,0,0,1,1,1,1,0,1,1,0,0,0,0,0,0,0,0,0,0,0,0,0,0,0,0,0,0,0,0
72,3550,14760,51447,41126,24358,43544,34923,14760,51447,41126,9726,63656,4578,27558,37290,33305,32061,41697,23979,0,0,0,1,1,1,1,0,1,1,0,0,0,0,0,0,0,0,0,0,0,0,0,0,0,0,0,0,0,0
73,3600,14760,51447,41126,23947,43642,35105,14760,51447,41126,9482,63666,4705,27557,37290,33305,32061,41697,23979,0,0,0,1,1,1,1,0,1,1,0,0,0,0,0,0,0,0,0,0,0,0,0,0,0,0,0,0,0,0
74,3650,14760,51447,41126,23538,43734,35290,14760,51447,41126,9240,63674,4832,27557,37290,33305,32061,41697,23979,0,0,0,1,1,1,1,0,1,1,0,0,0,0,0,0,0,0,0,0,0,0,0,0,0,0,0,0,0,0
75,3700,14760,51447,41126,23130,43821,35478,14760,51447,41126,8999,63678,4961,27556,37290,33305,32061,41697,23979,0,0,0,1,1,1,1,0,1,1,0,0,0,0,0,0,0,0,0,0,0,0,0,0,0,0,0,0,0,0
76,3750,14760,51447,41126,22725,43903,35669,14760,51447,41126,8761,63679,5091,27556,37290,33305,32061,41697,23979,0,0,0,1,1,1,1,0,1,1,0,0,0,0,0,0,0,0,0,0,0,0,0,0,0,0,0,0,0,0
77,3800,14760,51447,41126,22321,43979,35863,14760,51447,41126,8526,63677,5222,27555,37290,33305,32061,41697,23979,0,0,0,1,1,1,1,0,1,1,0,0,0,0,0,0,0,0,0,0,0,0,0,0,0,0,0,0,0,0
78,3850,14760,51447,41126,21919,44050,36059,14760,51447,41126,8292,63672,5354,27555,37290,33305,32061,41696,23979,0,0,0,1,1,1,1,0,1,1,0,0,0,0,0,0,0,0,0,0,0,0,0,0,0,0,0,0,0,0
79,3900,14760,51447,41126,21520,44116,36259,14760,51447,41126,8061,63663,5488,27555,37290,33305,32061,41696,23979,0,0,0,1,1,1,1,0,1,1,0,0,0,0,0,0,0,0,0,0,0,0,0,0,0,0,0,0,0,0
80,3950,14760,51447,41126,21123,44176,36461,14760,51447,41126,7832,63652,5622,27554,37290,33305,32061,41696,23979,0,0,0,1,1,1,1,0,1,1,0,0,0,0,0,0,0,0,0,0,0,0,0,0,0,0,0,0,0,0
81,4000,14760,51447,41126,20728,44231,36665,14760,51447,41126,7605,63638,5757,27554,37290,33305,32061,41696,23979,0,0,0,1,1,1,1,0,1,1,0,0,0,0,0,0,0,0,0,0,0,0,0,0,0,0,0,0,0,0
82,4050,14760,51447,41126,20335,44280,36872,14760,51447,41126,7381,63620,5894,27553,37290,33305,32061,41696,23979,0,0,0,1,1,1,1,0,1,1,0,0,0,0,0,0,0,0,0,0,0,0,0,0,0,0,0,0,0,0
83,4100,14760,51447,41126,19945,44324,37082,14760,51447,41126,7159,63600,6031,27553,37290,33305,32061,41696,23979,0,0,0,1,1,1,1,0,1,1,0,0,0,0,0,0,0,0,0,0,0,0,0,0,0,0,0,0,0,0
84,4150,14760,51447,41126,19558,44363,37294,14760,51447,41126,6940,63577,6170,27552,37290,33305,32061,41696,23979,0,0,0,1,1,1,1,0,1,1,0,0,0,0,0,0,0,0,0,0,0,0,0,0,0,0,0,0,0,0
85,4200,14760,51447,41126,19173,44396,37509,14760,51447,41126,6724,63550,6309,27552,37290,33305,32061,41696,23979,0,0,0,1,1,1,1,0,1,1,0,0,0,0,0,0,0,0,0,0,0,0,0,0,0,0,0,0,0,0
86,4250,14760,51447,41126,18791,44424,37725,14760,51447,41126,6510,63521,6449,27552,37290,33305,32060,41696,23979,0,0,0,1,1,1,1,0,1,1,0,0,0,0,0,0,0,0,0,0,0,0,0,0,0,0,0,0,0,0
87,4300,14760,51447,41126,18413,44446,37945,14760,51447,41126,6299,63488,6590,27551,37290,33305,32060,41696,23979,0,0,0,1,1,1,1,0,1,1,0,0,0,0,0,0,0,0,0,0,0,0,0,0,0,0,0,0,0,0
88,4350,14760,51447,41126,18037,44462,38166,14760,51447,41126,6090,63452,6732,27551,37290,33305,32060,41696,23979,0,0,0,1,1,1,1,0,1,1,0,0,0,0,0,0,0,0,0,0,0,0,0,0,0,0,0,0,0,0
89,4400,14760,51447,41126,17664,44473,38390,14760,51447,41126,5885,63414,6875,27551,37290,33305,32060,41696,23979,0,0,0,1,1,1,1,0,1,1,0,0,0,0,0,0,0,0,0,0,0,0,0,0,0,0,0,0,0,0
90,4450,14760,51447,41126,17294,44479,38616,14760,51447,41126,5682,63372,7018,27550,37290,33305,32060,41696,23979,0,0,0,1,1,1,1,0,1,1,0,0,0,0,0,0,0,0,0,0,0,0,0,0,0,0,0,0,0,0
91,4500,14760,51447,41126,16928,44479,38844,14760,51447,41126,5482,63328,7162,27550,37290,33306,32060,41696,23980,0,0,0,1,1,1,1,0,1,1,0,0,0,0,0,0,0,0,0,0,0,0,0,0,0,0,0,0,0,0
92,4550,14760,51447,41126,16565,44474,39074,14760,51447,41126,5286,63280,7307,27550,37290,33306,32060,41696,23980,0,0,0,1,1,1,1,0,1,1,0,0,0,0,0,0,0,0,0,0,0,0,0,0,0,0,0,0,0,0
93,4600,14760,51447,41126,16205,44463,39306,14760,51447,41126,5092,63229,7453,27549,37290,33306,32060,41696,23980,0,0,0,1,1,1,1,0,1,1,0,0,0,0,0,0,0,0,0,0,0,0,0,0,0,0,0,0,0,0
94,4650,14760,51447,41126,15849,44447,39539,14760,51447,41126,4901,63176,7599,27549,37289,33306,32060,41696,23980,0,0,0,1,1,1,1,0,1,1,0,0,0,0,0,0,0,0,0,0,0,0,0,0,0,0,0,0,0,0
95,4700,14760,51447,41126,15497,44425,39775,14760,51447,41126,4714,63120,7745,27549,37289,33306,32060,41696,23980,0,0,0,1,1,1,1,0,1,1,0,0,0,0,0,0,0,0,0,0,0,0,0,0,0,0,0,0,0,0
96,4750,14760,51447,41126,15148,44398,40013,14760,51447,41126,4529,63060,7892,27548,37289,33306,32060,41696,23980,0,0,0,1,1,1,1,0,1,1,0,0,0,0,0,0,0,0,0,0,0,0,0,0,0,0,0,0,0,0
97,4800,14760,51447,41126,14803,44365,40252,14760,51447,41126,4348,62998,8040,27548,37289,33306,32060,41696,23980,0,0,0,1,1,1,1,0,1,1,0,0,0,0,0,0,0,0,0,0,0,0,0,0,0,0,0,0,0,0
98,4850,14760,51447,41126,14462,44327,40493,14760,51447,41126,4170,62933,8188,27548,37289,33306,32060,41696,23980,0,0,0,1,1,1,1,0,1,1,0,0,0,0,0,0,0,0,0,0,0,0,0,0,0,0,0,0,0,0
99,4900,14760,51447,41126,14125,44283,40736,14760,51447,41126,3995,62865,8336,27548,37289,33306,32060,41696,23980,0,0,0,1,1,1,1,0,1,1,0,0,0,0,0,0,0,0,0,0,0,0,0,0,0,0,0,0,0,0
100,4950,14760,51447,41126,13792,44234,40980,14760,51447,41126,3824,62794,8485,27547,37289,33306,32060,41696,23980,0,0,0,1,1,1,1,0,1,1,0,0,0,0,0,0,0,0,0,0,0,0,0,0,0,0,0,0,0,0
101,5000,14760,51447,41126,13463,44180,41226,14760,51447,41126,3656,62720,8634,27547,37289,33306,32060,41696,23980,0,0,0,1,1,1,1,0,1,1,0,0,0,0,0,0,0,0,0,0,0,0,0,0,0,0,0,0,0,0
102,5050,14760,51447,41126,13139,44120,41473,14760,51447,41126,3492,62643,8783,27547,37289,33306,32060,41696,23980,0,0,0,1,1,1,1,0,1,1,0,0,0,0,0,0,0,0,0,0,0,0,0,0,0,0,0,0,0,0
103,5100,14760,51447,41126,12819,44055,41722,14760,51447,41126,3331,62564,8933,27547,37289,33306,32060,41696,23980,0,0,0,1,1,1,1,0,1,1,0,0,0,0,0,0,0,0,0,0,0,0,0,0,0,0,0,0,0,0
104,5150,14760,51447,41126,12503,43984,41972,14760,51447,41126,3173,62482,9083,27546,37289,33306,32060,41696,23980,0,0,0,1,1,1,1,0,1,1,0,0,0,0,0,0,0,0,0,0,0,0,0,0,0,0,0,0,0,0
105,5200,14760,51447,41126,12191,43908,42223,14760,51447,41126,3019,62397,9233,27546,37289,33306,32060,41696,23980,0,0,0,1,1,1,1,0,1,1,0,0,0,0,0,0,0,0,0,0,0,0,0,0,0,0,0,0,0,0
