RTDS Simulation, 0,1999
48,18A,30D
1,IBURA1,,,Amps,7.23607E-5,-1.89671,0,0,65535,1.0,1.0,P
2,IBURB1,,,Amps,1.87638E-5,-0.614839,0,0,65535,1.0,1.0,P
3,IBURC1,,,Amps,1.9292E-5,-0.614837,0,0,65535,1.0,1.0,P
4,IBURA2,,,Amps,7.23607E-5,-1.89671,0,0,65535,1.0,1.0,P
5,IBURB2,,,Amps,1.87638E-5,-0.614838,0,0,65535,1.0,1.0,P
6,IBURC2,,,Amps,1.9292E-5,-0.614836,0,0,65535,1.0,1.0,P
7,IBUR_SUM12_A,,,,1.44721E-4,-3.79342,0,0,65535,1.0,1.0,P
8,IBUR_SUM12_B,,,,3.75276E-5,-1.22968,0,0,65535,1.0,1.0,P
9,IBUR_SUM12_C,,,,3.8584E-5,-1.22967,0,0,65535,1.0,1.0,P
10,IBURA3,,,Amps,9.64874E-5,-3.06324,0,0,65535,1.0,1.0,P
11,IBURB3,,,Amps,3.91377E-5,-1.28244,0,0,65535,1.0,1.0,P
12,IBURC3,,,Amps,4.57453E-5,-1.56664,0,0,65535,1.0,1.0,P
13,Ua_SUB_A_VT2,,,,0.00258859,-84.8218,0,0,65535,1.0,1.0,P
14,Ub_SUB_A_VT2,,,,0.00307829,-99.7384,0,0,65535,1.0,1.0,P
15,Uc_SUB_A_VT2,,,,0.00331095,-117.534,0,0,65535,1.0,1.0,P
16,Ua_SUB_B_VT2,,,,0.0031312,-87.8764,0,0,65535,1.0,1.0,P
17,Ub_SUB_B_VT2,,,,0.00269177,-87.877,0,0,65535,1.0,1.0,P
18,Uc_SUB_B_VT2,,,,0.00272149,-90.4781,0,0,65535,1.0,1.0,P
1,BRK1,0,,0
2,BRK2,0,,0
3,BRK3,0,,0
4,BRK4,0,,0
5,BRK5,0,,0
6,BRK6,0,,0
7,BRK7,0,,0
8,BRK8,0,,0
9,BRK9,0,,0
10,BRK10,0,,0
11,FLT1,0,,0
12,FLT2,0,,0
13,FLT3,0,,0
14,FLT4,0,,0
15,FLT5,0,,0
16,FLT6,0,,0
17,FLT7,0,,0
18,TRIP_NVCHZ_1,0,,0
19,TRIP_RNMOP_1,0,,0
20,TRIP_RS_1,0,,0
21,TRIP_I2t_1,0,,0
22,TRIP_NVCHZ_2,0,,0
23,TRIP_RNMOP_2,0,,0
24,TRIP_RS_2,0,,0
25,TRIP_I2t_2,0,,0
26,START_VCH_PP_1,0,,0
27,START_VCH_PP_2,0,,0
28,RECV_VCH_PP_1,0,,0
29,RECV_VCH_PP_2,0,,0
30,start_test,0,,0
50.0
1
20000.0,14000
19/07/2022,13:45:35.643000
19/07/2022,13:45:35.790000
ASCII
1
1,0,32466,39921,1457,32466,39921,1457,32555,39418,1610,21891,25885,60931,5805,30180,58637,9252,22610,64819,1,1,1,0,0,0,1,0,1,1,0,0,0,0,0,0,0,0,0,0,0,0,0,0,0,0,0,0,0,0
2,50,32374,40422,1311,32374,40422,1311,32466,39921,1457,22032,25382,61063,6101,29749,58807,9581,22123,64921,1,1,1,0,0,0,1,0,1,1,0,0,0,0,0,0,0,0,0,0,0,0,0,0,0,0,0,0,0,0
3,100,32282,40921,1173,32282,40921,1173,32374,40422,1311,22176,24881,61188,6403,29319,58970,9915,21639,65016,1,1,1,0,0,0,1,0,1,1,0,0,0,0,0,0,0,0,0,0,0,0,0,0,0,0,0,0,0,0
4,150,32188,41419,1042,32188,41419,1042,32282,40921,1173,22322,24382,61307,6712,28889,59128,10254,21158,65102,1,1,1,0,0,0,1,0,1,1,0,0,0,0,0,0,0,0,0,0,0,0,0,0,0,0,0,0,0,0
5,200,32092,41914,919,32092,41914,919,32188,41419,1042,22470,23885,61418,7028,28460,59281,10597,20679,65181,1,1,1,0,0,0,1,0,1,1,0,0,0,0,0,0,0,0,0,0,0,0,0,0,0,0,0,0,0,0
6,250,31995,42407,803,31995,42407,803,32092,41914,919,22621,23390,61524,7349,28032,59427,10944,20203,65252,1,1,1,0,0,0,1,0,1,1,0,0,0,0,0,0,0,0,0,0,0,0,0,0,0,0,0,0,0,0
7,300,31896,42897,695,31896,42897,695,31995,42407,803,22774,22898,61622,7677,27605,59567,11295,19731,65315,1,1,1,0,0,0,1,0,1,1,0,0,0,0,0,0,0,0,0,0,0,0,0,0,0,0,0,0,0,0
8,350,31797,43385,595,31797,43385,595,31896,42897,695,22929,22408,61713,8011,27179,59702,11651,19261,65370,1,1,1,0,0,0,1,0,1,1,0,0,0,0,0,0,0,0,0,0,0,0,0,0,0,0,0,0,0,0
9,400,31695,43871,502,31695,43871,502,31797,43385,595,23086,21921,61798,8351,26755,59830,12010,18795,65418,1,1,1,0,0,0,1,0,1,1,0,0,0,0,0,0,0,0,0,0,0,0,0,0,0,0,0,0,0,0
10,450,31593,44354,418,31593,44354,418,31695,43871,502,23246,21436,61876,8698,26332,59953,12374,18333,65457,1,1,1,0,0,0,1,0,1,1,0,0,0,0,0,0,0,0,0,0,0,0,0,0,0,0,0,0,0,0
11,500,31489,44834,341,31489,44834,341,31593,44354,418,23407,20954,61947,9050,25910,60069,12741,17874,65488,1,1,1,0,0,0,1,0,1,1,0,0,0,0,0,0,0,0,0,0,0,0,0,0,0,0,0,0,0,0
12,550,31383,45310,272,31383,45310,272,31489,44834,341,23571,20475,62012,9408,25490,60179,13113,17418,65512,1,1,1,0,0,0,1,0,1,1,0,0,0,0,0,0,0,0,0,0,0,0,0,0,0,0,0,0,0,0
13,600,31277,45784,210,31277,45784,210,31383,45310,272,23736,19999,62069,9772,25072,60284,13487,16966,65527,1,1,1,0,0,0,1,0,1,1,0,0,0,0,0,0,0,0,0,0,0,0,0,0,0,0,0,0,0,0
14,650,31169,46255,156,31169,46255,156,31277,45784,210,23904,19527,62120,10141,24656,60382,13866,16519,65535,1,1,1,0,0,0,1,0,1,1,0,0,0,0,0,0,0,0,0,0,0,0,0,0,0,0,0,0,0,0
15,700,31060,46722,111,31060,46722,111,31169,46255,156,24073,19057,62164,10516,24242,60474,14248,16075,65534,1,1,1,0,0,0,1,0,1,1,0,0,0,0,0,0,0,0,0,0,0,0,0,0,0,0,0,0,0,0
16,750,30950,47186,73,30950,47186,73,31060,46722,111,24245,18591,62201,10897,23829,60559,14633,15635,65526,1,1,1,0,0,0,1,0,1,1,0,0,0,0,0,0,0,0,0,0,0,0,0,0,0,0,0,0,0,0
17,800,30839,47646,43,30839,47646,43,30950,47186,73,24418,18129,62231,11283,23419,60639,15022,15199,65509,1,1,1,0,0,0,1,0,1,1,0,0,0,0,0,0,0,0,0,0,0,0,0,0,0,0,0,0,0,0
18,850,30726,48103,20,30726,48103,20,30839,47646,43,24593,17670,62254,11674,23011,60713,15414,14768,65485,1,1,1,0,0,0,1,0,1,1,0,0,0,0,0,0,0,0,0,0,0,0,0,0,0,0,0,0,0,0
19,900,30612,48556,6,30612,48556,6,30726,48103,20,24770,17214,62270,12071,22605,60780,15809,14341,65452,1,1,1,0,0,0,1,0,1,1,0,0,0,0,0,0,0,0,0,0,0,0,0,0,0,0,0,0,0,0
20,950,30498,49005,0,30498,49005,0,30612,48556,6,24948,16763,62279,12472,22202,60841,16207,13919,65412,1,1,1,0,0,0,1,0,1,1,0,0,0,0,0,0,0,0,0,0,0,0,0,0,0,0,0,0,0,0
21,1000,30382,49450,1,30382,49450,1,30498,49005,0,25128,16316,62282,12879,21801,60896,16608,13501,65364,1,1,1,0,0,0,1,0,1,1,0,0,0,0,0,0,0,0,0,0,0,0,0,0,0,0,0,0,0,0
22,1050,30265,49890,10,30265,49890,10,30382,49450,1,25310,15872,62277,13290,21402,60944,17012,13088,65308,1,1,1,0,0,0,1,0,1,1,0,0,0,0,0,0,0,0,0,0,0,0,0,0,0,0,0,0,0,0
23,1100,30147,50327,27,30147,50327,27,30265,49890,10,25494,15433,62266,13707,21007,60986,17419,12680,65244,1,1,1,0,0,0,1,0,1,1,0,0,0,0,0,0,0,0,0,0,0,0,0,0,0,0,0,0,0,0
24,1150,30028,50759,52,30028,50759,52,30147,50327,27,25678,14998,62247,14128,20614,61022,17828,12276,65172,1,1,1,0,0,0,1,0,1,1,0,0,0,0,0,0,0,0,0,0,0,0,0,0,0,0,0,0,0,0
25,1200,29909,51187,85,29909,51187,85,30028,50759,52,25865,14568,62222,14553,20224,61052,18240,11878,65092,1,1,1,0,0,0,1,0,1,1,0,0,0,0,0,0,0,0,0,0,0,0,0,0,0,0,0,0,0,0
26,1250,29788,51611,125,29788,51611,125,29909,51187,85,26053,14142,62190,14984,19837,61075,18654,11485,65004,1,1,1,0,0,0,1,0,1,1,0,0,0,0,0,0,0,0,0,0,0,0,0,0,0,0,0,0,0,0
27,1300,29667,52029,174,29667,52029,174,29788,51611,125,26242,13721,62151,15418,19454,61092,19070,11097,64909,1,1,1,0,0,0,1,0,1,1,0,0,0,0,0,0,0,0,0,0,0,0,0,0,0,0,0,0,0,0
28,1350,29544,52443,230,29544,52443,230,29667,52029,174,26433,13304,62105,15857,19073,61103,19489,10714,64805,1,1,1,0,0,0,1,0,1,1,0,0,0,0,0,0,0,0,0,0,0,0,0,0,0,0,0,0,0,0
29,1400,29421,52852,294,29421,52852,294,29544,52443,230,26625,12892,62052,16300,18696,61107,19910,10337,64694,1,1,1,0,0,0,1,0,1,1,0,0,0,0,0,0,0,0,0,0,0,0,0,0,0,0,0,0,0,0
30,1450,29297,53256,366,29297,53256,366,29421,52852,294,26818,12485,61992,16747,18322,61105,20333,9966,64575,1,1,1,0,0,0,1,0,1,1,0,0,0,0,0,0,0,0,0,0,0,0,0,0,0,0,0,0,0,0
31,1500,29172,53655,446,29172,53655,446,29297,53256,366,27012,12083,61925,17198,17952,61097,20757,9600,64449,1,1,1,0,0,0,1,0,1,1,0,0,0,0,0,0,0,0,0,0,0,0,0,0,0,0,0,0,0,0
32,1550,29047,54049,533,29047,54049,533,29172,53655,446,27208,11687,61852,17652,17585,61083,21184,9239,64314,1,1,1,0,0,0,1,0,1,1,0,0,0,0,0,0,0,0,0,0,0,0,0,0,0,0,0,0,0,0
33,1600,28921,54438,628,28921,54438,628,29047,54049,533,27405,11295,61772,18111,17222,61062,21612,8885,64172,1,1,1,0,0,0,1,0,1,1,0,0,0,0,0,0,0,0,0,0,0,0,0,0,0,0,0,0,0,0
34,1650,28794,54821,731,28794,54821,731,28921,54438,628,27602,10909,61685,18573,16862,61034,22042,8536,64023,1,1,1,0,0,0,1,0,1,1,0,0,0,0,0,0,0,0,0,0,0,0,0,0,0,0,0,0,0,0
35,1700,28666,55199,841,28666,55199,841,28794,54821,731,27801,10528,61591,19038,16507,61001,22473,8193,63865,1,1,1,0,0,0,1,0,1,1,0,0,0,0,0,0,0,0,0,0,0,0,0,0,0,0,0,0,0,0
36,1750,28538,55572,960,28538,55572,960,28666,55199,841,28001,10152,61491,19507,16155,60961,22906,7856,63701,1,1,1,0,0,0,1,0,1,1,0,0,0,0,0,0,0,0,0,0,0,0,0,0,0,0,0,0,0,0
37,1800,28409,55938,1085,28409,55938,1085,28538,55572,960,28202,9783,61383,19980,15808,60915,23340,7526,63528,1,1,1,0,0,0,1,0,1,1,0,0,0,0,0,0,0,0,0,0,0,0,0,0,0,0,0,0,0,0
38,1850,28280,56299,1219,28280,56299,1219,28409,55938,1085,28403,9419,61270,20455,15464,60863,23775,7201,63349,1,1,1,0,0,0,1,0,1,1,0,0,0,0,0,0,0,0,0,0,0,0,0,0,0,0,0,0,0,0
39,1900,28151,56655,1360,28151,56655,1360,28280,56299,1219,28606,9060,61149,20934,15125,60804,24211,6883,63161,1,1,1,0,0,0,1,0,1,1,0,0,0,0,0,0,0,0,0,0,0,0,0,0,0,0,0,0,0,0
40,1950,28020,57004,1508,28020,57004,1508,28151,56655,1360,28809,8708,61022,21415,14790,60739,24648,6571,62967,1,1,1,0,0,0,1,0,1,1,0,0,0,0,0,0,0,0,0,0,0,0,0,0,0,0,0,0,0,0
41,2000,27890,57347,1664,27890,57347,1664,28020,57004,1508,29013,8361,60888,21899,14459,60668,25086,6266,62765,1,1,1,0,0,0,1,0,1,1,0,0,0,0,0,0,0,0,0,0,0,0,0,0,0,0,0,0,0,0
42,2050,27759,57685,1828,27759,57685,1828,27890,57347,1664,29217,8021,60747,22386,14132,60591,25525,5967,62556,1,1,1,0,0,0,1,0,1,1,0,0,0,0,0,0,0,0,0,0,0,0,0,0,0,0,0,0,0,0
43,2100,27627,58016,1998,27627,58016,1998,27759,57685,1828,29422,7686,60601,22875,13811,60507,25964,5675,62339,1,1,1,0,0,0,1,0,1,1,0,0,0,0,0,0,0,0,0,0,0,0,0,0,0,0,0,0,0,0
44,2150,27495,58341,2177,27495,58341,2177,27627,58016,1998,29628,7358,60447,23367,13493,60418,26404,5389,62116,1,1,1,0,0,0,1,0,1,1,0,0,0,0,0,0,0,0,0,0,0,0,0,0,0,0,0,0,0,0
45,2200,27363,58659,2362,27363,58659,2362,27495,58341,2177,29835,7036,60287,23861,13181,60322,26844,5110,61885,1,1,1,0,0,0,1,0,1,1,0,0,0,0,0,0,0,0,0,0,0,0,0,0,0,0,0,0,0,0
46,2250,27231,58972,2555,27231,58972,2555,27363,58659,2362,30041,6721,60121,24358,12873,60220,27285,4838,61647,1,1,1,0,0,0,1,0,1,1,0,0,0,0,0,0,0,0,0,0,0,0,0,0,0,0,0,0,0,0
47,2300,27098,59277,2755,27098,59277,2755,27231,58972,2555,30249,6411,59948,24856,12570,60112,27725,4573,61402,1,1,1,0,0,0,1,0,1,1,0,0,0,0,0,0,0,0,0,0,0,0,0,0,0,0,0,0,0,0
48,2350,26965,59577,2962,26965,59577,2962,27098,59277,2755,30456,6109,59769,25356,12272,59998,28166,4315,61151,1,1,1,0,0,0,1,0,1,1,0,0,0,0,0,0,0,0,0,0,0,0,0,0,0,0,0,0,0,0
49,2400,26832,59869,3177,26832,59869,3177,26965,59577,2962,30664,5813,59584,25858,11979,59878,28607,4063,60892,1,1,1,0,0,0,1,0,1,1,0,0,0,0,0,0,0,0,0,0,0,0,0,0,0,0,0,0,0,0
50,2450,26699,60155,3398,26699,60155,3398,26832,59869,3177,30872,5523,59392,26362,11691,59751,29048,3819,60627,1,1,1,0,0,0,1,0,1,1,0,0,0,0,0,0,0,0,0,0,0,0,0,0,0,0,0,0,0,0
51,2500,26566,60434,3626,26566,60434,3626,26699,60155,3398,31081,5241,59194,26868,11408,59619,29488,3582,60354,1,1,1,0,0,0,1,0,1,1,0,0,0,0,0,0,0,0,0,0,0,0,0,0,0,0,0,0,0,0
52,2550,26432,60707,3862,26432,60707,3862,26566,60434,3626,31289,4965,58990,27375,11130,59481,29928,3352,60075,1,1,1,0,0,0,1,0,1,1,0,0,0,0,0,0,0,0,0,0,0,0,0,0,0,0,0,0,0,0
53,2600,26299,60972,4104,26299,60972,4104,26432,60707,3862,31498,4696,58780,27883,10857,59337,30368,3129,59790,1,1,1,0,0,0,1,0,1,1,0,0,0,0,0,0,0,0,0,0,0,0,0,0,0,0,0,0,0,0
54,2650,26165,61231,4353,26165,61231,4353,26299,60972,4104,31707,4434,58564,28392,10590,59187,30807,2914,59498,1,1,1,0,0,0,1,0,1,1,0,0,0,0,0,0,0,0,0,0,0,0,0,0,0,0,0,0,0,0
55,2700,26032,61482,4609,26032,61482,4609,26165,61231,4353,31915,4179,58342,28903,10328,59031,31245,2706,59199,1,1,1,0,0,0,1,0,1,1,0,0,0,0,0,0,0,0,0,0,0,0,0,0,0,0,0,0,0,0
56,2750,25899,61726,4872,25899,61726,4872,26032,61482,4609,32124,3931,58114,29414,10072,58870,31682,2505,58894,1,1,1,0,0,0,1,0,1,1,0,0,0,0,0,0,0,0,0,0,0,0,0,0,0,0,0,0,0,0
57,2800,25765,61964,5142,25765,61964,5142,25899,61726,4872,32333,3690,57880,29926,9821,58702,32119,2312,58583,1,1,1,0,0,0,1,0,1,1,0,0,0,0,0,0,0,0,0,0,0,0,0,0,0,0,0,0,0,0
58,2850,25632,62194,5418,25632,62194,5418,25765,61964,5142,32541,3456,57640,30439,9576,58529,32555,2126,58266,1,1,1,0,0,0,1,0,1,1,0,0,0,0,0,0,0,0,0,0,0,0,0,0,0,0,0,0,0,0
59,2900,25499,62417,5700,25499,62417,5700,25632,62194,5418,32750,3229,57395,30953,9336,58351,32989,1948,57942,1,1,1,0,0,0,1,0,1,1,0,0,0,0,0,0,0,0,0,0,0,0,0,0,0,0,0,0,0,0
60,2950,25366,62632,5989,25366,62632,5989,25499,62417,5700,32958,3010,57144,31467,9102,58166,33422,1777,57612,1,1,1,0,0,0,1,0,1,1,0,0,0,0,0,0,0,0,0,0,0,0,0,0,0,0,0,0,0,0
61,3000,25233,62840,6284,25233,62840,6284,25366,62632,5989,33165,2798,56887,31981,8874,57976,33854,1614,57276,1,1,1,0,0,0,1,0,1,1,0,0,0,0,0,0,0,0,0,0,0,0,0,0,0,0,0,0,0,0
62,3050,25101,63041,6586,25101,63041,6586,25233,62840,6284,33373,2594,56624,32495,8651,57781,34285,1458,56935,1,1,1,0,0,0,1,0,1,1,0,0,0,0,0,0,0,0,0,0,0,0,0,0,0,0,0,0,0,0
63,3100,24969,63234,6894,24969,63234,6894,25101,63041,6586,33580,2397,56356,33010,8435,57580,34714,1311,56587,1,1,1,0,0,0,1,0,1,1,0,0,0,0,0,0,0,0,0,0,0,0,0,0,0,0,0,0,0,0
64,3150,24837,63420,7208,24837,63420,7208,24969,63234,6894,33787,2207,56083,33524,8224,57373,35141,1171,56234,1,1,1,0,0,0,1,0,1,1,0,0,0,0,0,0,0,0,0,0,0,0,0,0,0,0,0,0,0,0
65,3200,24705,63598,7528,24705,63598,7528,24837,63420,7208,33993,2025,55804,34038,8019,57161,35567,1038,55875,1,1,1,0,0,0,1,0,1,1,0,0,0,0,0,0,0,0,0,0,0,0,0,0,0,0,0,0,0,0
66,3250,24574,63768,7854,24574,63768,7854,24705,63598,7528,34198,1851,55520,34552,7820,56944,35990,914,55510,1,1,1,0,0,0,1,0,1,1,0,0,0,0,0,0,0,0,0,0,0,0,0,0,0,0,0,0,0,0
67,3300,24444,63931,8186,24444,63931,8186,24574,63768,7854,34403,1684,55231,35066,7628,56722,36412,797,55140,1,1,1,0,0,0,1,0,1,1,0,0,0,0,0,0,0,0,0,0,0,0,0,0,0,0,0,0,0,0
68,3350,24313,64086,8524,24313,64086,8524,24444,63931,8186,34608,1525,54936,35578,7441,56494,36832,689,54764,1,1,1,0,0,0,1,0,1,1,0,0,0,0,0,0,0,0,0,0,0,0,0,0,0,0,0,0,0,0
69,3400,24183,64234,8868,24183,64234,8868,24313,64086,8524,34811,1373,54636,36091,7261,56261,37250,588,54384,1,1,1,0,0,0,1,0,1,1,0,0,0,0,0,0,0,0,0,0,0,0,0,0,0,0,0,0,0,0
70,3450,24054,64374,9217,24054,64374,9217,24183,64234,8868,35014,1230,54332,36602,7087,56023,37665,495,53998,1,1,1,0,0,0,1,0,1,1,0,0,0,0,0,0,0,0,0,0,0,0,0,0,0,0,0,0,0,0
71,3500,23925,64505,9572,23925,64505,9572,24054,64374,9217,35216,1094,54022,37113,6919,55780,38078,410,53606,1,1,1,0,0,0,1,0,1,1,0,0,0,0,0,0,0,0,0,0,0,0,0,0,0,0,0,0,0,0
72,3550,23797,64629,9933,23797,64629,9933,23925,64505,9572,35418,966,53707,37623,6757,55531,38489,333,53210,1,1,1,0,0,0,1,0,1,1,0,0,0,0,0,0,0,0,0,0,0,0,0,0,0,0,0,0,0,0
73,3600,23669,64746,10299,23669,64746,10299,23797,64629,9933,35618,846,53388,38131,6602,55278,38897,264,52809,1,1,1,0,0,0,1,0,1,1,0,0,0,0,0,0,0,0,0,0,0,0,0,0,0,0,0,0,0,0
74,3650,23542,64854,10670,23542,64854,10670,23669,64746,10299,35817,733,53064,38638,6453,55020,39302,202,52403,1,1,1,0,0,0,1,0,1,1,0,0,0,0,0,0,0,0,0,0,0,0,0,0,0,0,0,0,0,0
75,3700,23416,64954,11046,23416,64954,11046,23542,64854,10670,36016,629,52735,39144,6310,54758,39705,149,51993,1,1,1,0,0,0,1,0,1,1,0,0,0,0,0,0,0,0,0,0,0,0,0,0,0,0,0,0,0,0
76,3750,23290,65047,11428,23290,65047,11428,23416,64954,11046,36213,532,52402,39648,6174,54490,40104,104,51577,1,1,1,0,0,0,1,0,1,1,0,0,0,0,0,0,0,0,0,0,0,0,0,0,0,0,0,0,0,0
77,3800,23166,65131,11814,23166,65131,11814,23290,65047,11428,36409,444,52064,40151,6045,54218,40501,67,51157,1,1,1,0,0,0,1,0,1,1,0,0,0,0,0,0,0,0,0,0,0,0,0,0,0,0,0,0,0,0
78,3850,23041,65208,12206,23041,65208,12206,23166,65131,11814,36604,363,51722,40651,5922,53941,40895,38,50733,1,1,1,0,0,0,1,0,1,1,0,0,0,0,0,0,0,0,0,0,0,0,0,0,0,0,0,0,0,0
79,3900,22918,65276,12602,22918,65276,12602,23041,65208,12206,36798,291,51376,41150,5805,53660,41285,17,50305,1,1,1,0,0,0,1,0,1,1,0,0,0,0,0,0,0,0,0,0,0,0,0,0,0,0,0,0,0,0
80,3950,22795,65337,13004,22795,65337,13004,22918,65276,12602,36991,226,51025,41646,5695,53374,41672,4,49872,1,1,1,0,0,0,1,0,1,1,0,0,0,0,0,0,0,0,0,0,0,0,0,0,0,0,0,0,0,0
81,4000,22674,65389,13409,22674,65389,13409,22795,65337,13004,37182,170,50671,42141,5592,53084,42056,0,49435,1,1,1,0,0,0,1,0,1,1,0,0,0,0,0,0,0,0,0,0,0,0,0,0,0,0,0,0,0,0
82,4050,22553,65434,13820,22553,65434,13820,22674,65389,13409,37372,121,50312,42633,5495,52790,42437,3,48994,1,1,1,0,0,0,1,0,1,1,0,0,0,0,0,0,0,0,0,0,0,0,0,0,0,0,0,0,0,0
83,4100,22433,65470,14235,22433,65470,14235,22553,65434,13820,37560,81,49949,43122,5405,52491,42814,14,48550,1,1,1,0,0,0,1,0,1,1,0,0,0,0,0,0,0,0,0,0,0,0,0,0,0,0,0,0,0,0
84,4150,22314,65498,14654,22314,65498,14654,22433,65470,14235,37747,48,49582,43609,5321,52188,43187,33,48101,1,1,1,0,0,0,1,0,1,1,0,0,0,0,0,0,0,0,0,0,0,0,0,0,0,0,0,0,0,0
85,4200,22196,65518,15077,22196,65518,15077,22314,65498,14654,37933,24,49212,44094,5245,51881,43556,61,47649,1,1,1,0,0,0,1,0,1,1,0,0,0,0,0,0,0,0,0,0,0,0,0,0,0,0,0,0,0,0
86,4250,22078,65531,15505,22078,65531,15505,22196,65518,15077,38117,8,48838,44575,5174,51569,43922,96,47193,1,1,1,0,0,0,1,0,1,1,0,0,0,0,0,0,0,0,0,0,0,0,0,0,0,0,0,0,0,0
87,4300,21962,65535,15936,21962,65535,15936,22078,65531,15505,38300,0,48460,45054,5111,51254,44284,139,46734,1,1,1,0,0,0,1,0,1,1,0,0,0,0,0,0,0,0,0,0,0,0,0,0,0,0,0,0,0,0
88,4350,21847,65530,16372,21847,65530,16372,21962,65535,15936,38481,0,48079,45530,5054,50935,44642,191,46272,1,1,1,0,0,0,1,0,1,1,0,0,0,0,0,0,0,0,0,0,0,0,0,0,0,0,0,0,0,0
89,4400,21733,65518,16811,21733,65518,16811,21847,65530,16372,38660,8,47694,46002,5004,50612,44995,250,45806,1,1,1,0,0,0,1,0,1,1,0,0,0,0,0,0,0,0,0,0,0,0,0,0,0,0,0,0,0,0
90,4450,21621,65498,17254,21621,65498,17254,21733,65518,16811,38837,24,47306,46472,4961,50286,45345,318,45337,1,1,1,0,0,0,1,0,1,1,0,0,0,0,0,0,0,0,0,0,0,0,0,0,0,0,0,0,0,0
91,4500,21509,65470,17701,21509,65470,17701,21621,65498,17254,39013,48,46915,46938,4925,49955,45690,393,44865,1,1,1,0,0,0,1,0,1,1,0,0,0,0,0,0,0,0,0,0,0,0,0,0,0,0,0,0,0,0
92,4550,21398,65433,18151,21398,65433,18151,21509,65470,17701,39187,80,46521,47400,4895,49622,46031,476,44391,1,1,1,0,0,0,1,0,1,1,0,0,0,0,0,0,0,0,0,0,0,0,0,0,0,0,0,0,0,0
93,4600,21289,65389,18605,21289,65389,18605,21398,65433,18151,39359,120,46123,47859,4872,49284,46367,568,43913,1,1,1,0,0,0,1,0,1,1,0,0,0,0,0,0,0,0,0,0,0,0,0,0,0,0,0,0,0,0
94,4650,21181,65337,19062,21181,65337,19062,21289,65389,18605,39530,169,45723,48314,4856,48944,46699,667,43433,1,1,1,0,0,0,1,0,1,1,0,0,0,0,0,0,0,0,0,0,0,0,0,0,0,0,0,0,0,0
95,4700,21074,65276,19522,21074,65276,19522,21181,65337,19062,39698,225,45320,48765,4847,48600,47027,774,42951,1,1,1,0,0,0,1,0,1,1,0,0,0,0,0,0,0,0,0,0,0,0,0,0,0,0,0,0,0,0
96,4750,20968,65208,19985,20968,65208,19985,21074,65276,19522,39864,290,44914,49212,4845,48252,47349,889,42466,1,1,1,0,0,0,1,0,1,1,0,0,0,0,0,0,0,0,0,0,0,0,0,0,0,0,0,0,0,0
97,4800,20864,65131,20451,20864,65131,20451,20968,65208,19985,40029,362,44506,49655,4849,47902,47667,1012,41979,1,1,1,0,0,0,1,0,1,1,0,0,0,0,0,0,0,0,0,0,0,0,0,0,0,0,0,0,0,0
98,4850,20761,65046,20920,20761,65046,20920,20864,65131,20451,40191,443,44095,50094,4860,47549,47980,1143,41489,1,1,1,0,0,0,1,0,1,1,0,0,0,0,0,0,0,0,0,0,0,0,0,0,0,0,0,0,0,0
99,4900,20659,64954,21391,20659,64954,21391,20761,65046,20920,40351,531,43681,50529,4878,47192,48288,1281,40998,1,1,1,0,0,0,1,0,1,1,0,0,0,0,0,0,0,0,0,0,0,0,0,0,0,0,0,0,0,0
100,4950,20559,64854,21866,20559,64854,21866,20659,64954,21391,40509,628,43266,50960,4903,46833,48592,1427,40504,1,1,1,0,0,0,1,0,1,1,0,0,0,0,0,0,0,0,0,0,0,0,0,0,0,0,0,0,0,0
101,5000,20460,64745,22342,20460,64745,22342,20559,64854,21866,40665,732,42848,51385,4935,46471,48890,1581,40009,1,1,1,0,0,0,1,0,1,1,0,0,0,0,0,0,0,0,0,0,0,0,0,0,0,0,0,0,0,0
102,5050,20362,64629,22821,20362,64629,22821,20460,64745,22342,40819,844,42428,51807,4973,46106,49183,1743,39513,1,1,1,0,0,0,1,0,1,1,0,0,0,0,0,0,0,0,0,0,0,0,0,0,0,0,0,0,0,0
103,5100,20266,64505,23302,20266,64505,23302,20362,64629,22821,40971,964,42006,52223,5018,45739,49470,1912,39014,1,1,1,0,0,0,1,0,1,1,0,0,0,0,0,0,0,0,0,0,0,0,0,0,0,0,0,0,0,0
104,5150,20172,64373,23785,20172,64373,23785,20266,64505,23302,41120,1092,41582,52635,5070,45369,49753,2088,38515,1,1,1,0,0,0,1,0,1,1,0,0,0,0,0,0,0,0,0,0,0,0,0,0,0,0,0,0,0,0
105,5200,20078,64233,24271,20078,64233,24271,20172,64373,23785,41267,1228,41156,53042,5129,44997,50030,2273,38014,1,1,1,0,0,0,1,0,1,1,0,0,0,0,0,0,0,0,0,0,0,0,0,0,0,0,0,0,0,0
106,5250,19987,64086,24758,19987,64086,24758,20078,64233,24271,41411,1371,40728,53444,5194,44622,50302,2464,37511,1,1,1,0,0,0,1,0,1,1,0,0,0,0,0,0,0,0,0,0,0,0,0,0,0,0,0,0,0,0
107,5300,19897,63930,25247,19897,63930,25247,19987,64086,24758,41553,1523,40299,53841,5266,44245,50568,2664,37008,1,1,1,0,0,0,1,0,1,1,0,0,0,0,0,0,0,0,0,0,0,0,0,0,0,0,0,0,0,0
108,5350,19808,63768,25737,19808,63768,25737,19897,63930,25247,41693,1682,39868,54232,5345,43866,50829,2870,36504,1,1,1,0,0,0,1,0,1,1,0,0,0,0,0,0,0,0,0,0,0,0,0,0,0,0,0,0,0,0
