RTDS Simulation, 0,1999
48,18A,30D
1,IBURA1,,,Amps,1.88181E-5,-0.614836,0,0,65535,1.0,1.0,P
2,IBURB1,,,Amps,8.52804E-5,-2.36411,0,0,65535,1.0,1.0,P
3,IBURC1,,,Amps,8.25672E-5,-3.12919,0,0,65535,1.0,1.0,P
4,IBURA2,,,Amps,1.88181E-5,-0.614834,0,0,65535,1.0,1.0,P
5,IBURB2,,,Amps,8.52804E-5,-2.36411,0,0,65535,1.0,1.0,P
6,IBURC2,,,Amps,8.25672E-5,-3.12919,0,0,65535,1.0,1.0,P
7,IBUR_SUM12_A,,,,3.76362E-5,-1.22967,0,0,65535,1.0,1.0,P
8,IBUR_SUM12_B,,,,1.70561E-4,-4.72822,0,0,65535,1.0,1.0,P
9,IBUR_SUM12_C,,,,1.65134E-4,-6.25837,0,0,65535,1.0,1.0,P
10,IBURA3,,,Amps,4.14934E-5,-1.36745,0,0,65535,1.0,1.0,P
11,IBURB3,,,Amps,1.52612E-4,-4.80648,0,0,65535,1.0,1.0,P
12,IBURC3,,,Amps,1.12481E-4,-3.99921,0,0,65535,1.0,1.0,P
13,Ua_SUB_A_VT2,,,,0.00372511,-140.06,0,0,65535,1.0,1.0,P
14,Ub_SUB_A_VT2,,,,0.00258865,-84.8237,0,0,65535,1.0,1.0,P
15,Uc_SUB_A_VT2,,,,0.00258766,-84.7907,0,0,65535,1.0,1.0,P
16,Ua_SUB_B_VT2,,,,0.00345802,-124.203,0,0,65535,1.0,1.0,P
17,Ub_SUB_B_VT2,,,,0.00278469,-94.6177,0,0,65535,1.0,1.0,P
18,Uc_SUB_B_VT2,,,,0.00300118,-108.808,0,0,65535,1.0,1.0,P
1,BRK1,0,,0
2,BRK2,0,,0
3,BRK3,0,,0
4,BRK4,0,,0
5,BRK5,0,,0
6,BRK6,0,,0
7,BRK7,0,,0
8,BRK8,0,,0
9,BRK9,0,,0
10,BRK10,0,,0
11,FLT1,0,,0
12,FLT2,0,,0
13,FLT3,0,,0
14,FLT4,0,,0
15,FLT5,0,,0
16,FLT6,0,,0
17,FLT7,0,,0
18,TRIP_NVCHZ_1,0,,0
19,TRIP_RNMOP_1,0,,0
20,TRIP_RS_1,0,,0
21,TRIP_I2t_1,0,,0
22,TRIP_NVCHZ_2,0,,0
23,TRIP_RNMOP_2,0,,0
24,TRIP_RS_2,0,,0
25,TRIP_I2t_2,0,,0
26,START_VCH_PP_1,0,,0
27,START_VCH_PP_2,0,,0
28,RECV_VCH_PP_1,0,,0
29,RECV_VCH_PP_2,0,,0
30,start_test,0,,0
50.0
1
20000.0,14000
19/07/2022,13:50:48.956000
19/07/2022,13:50:49.103000
ASCII
1
1,0,36082,33554,31096,36082,33554,31096,36592,33487,31049,29471,24735,46007,32101,9186,64261,35610,6841,61788,1,1,1,0,0,0,1,0,1,1,0,0,0,0,0,0,0,0,0,0,0,0,0,0,0,0,0,0,0,0
2,50,35571,33620,31144,35571,33620,31144,36082,33554,31096,29953,24658,45934,32449,8832,64115,36009,6591,61559,1,1,1,0,0,0,1,0,1,1,0,0,0,0,0,0,0,0,0,0,0,0,0,0,0,0,0,0,0,0
3,100,35060,33684,31194,35060,33684,31194,35571,33620,31144,30437,24582,45859,32798,8483,63961,36408,6348,61325,1,1,1,0,0,0,1,0,1,1,0,0,0,0,0,0,0,0,0,0,0,0,0,0,0,0,0,0,0,0
4,150,34547,33747,31246,34547,33747,31246,35060,33684,31194,30921,24508,45781,33148,8141,63799,36807,6112,61084,1,1,1,0,0,0,1,0,1,1,0,0,0,0,0,0,0,0,0,0,0,0,0,0,0,0,0,0,0,0
5,200,34035,33809,31299,34035,33809,31299,34547,33747,31246,31405,24435,45700,33499,7804,63630,37206,5883,60837,1,1,1,0,0,0,1,0,1,1,0,0,0,0,0,0,0,0,0,0,0,0,0,0,0,0,0,0,0,0
6,250,33522,33869,31354,33522,33869,31354,34035,33809,31299,31890,24364,45617,33851,7474,63454,37604,5661,60584,1,1,1,0,0,0,1,0,1,1,0,0,0,0,0,0,0,0,0,0,0,0,0,0,0,0,0,0,0,0
7,300,33009,33927,31411,33009,33927,31411,33522,33869,31354,32376,24295,45532,34204,7150,63269,38002,5446,60325,1,1,1,0,0,0,1,0,1,1,0,0,0,0,0,0,0,0,0,0,0,0,0,0,0,0,0,0,0,0
8,350,32495,33984,31469,32495,33984,31469,33009,33927,31411,32861,24228,45444,34558,6832,63077,38400,5237,60060,1,1,1,0,0,0,1,0,1,1,0,0,0,0,0,0,0,0,0,0,0,0,0,0,0,0,0,0,0,0
9,400,31982,34039,31529,31982,34039,31529,32495,33984,31469,33347,24163,45354,34913,6520,62878,38797,5036,59790,1,1,1,0,0,0,1,0,1,1,0,0,0,0,0,0,0,0,0,0,0,0,0,0,0,0,0,0,0,0
10,450,31469,34093,31590,31469,34093,31590,31982,34039,31529,33832,24099,45261,35268,6215,62671,39193,4842,59513,1,1,1,0,0,0,1,0,1,1,0,0,0,0,0,0,0,0,0,0,0,0,0,0,0,0,0,0,0,0
11,500,30956,34145,31653,30956,34145,31653,31469,34093,31590,34317,24037,45166,35624,5917,62457,39588,4655,59231,1,1,1,0,0,0,1,0,1,1,0,0,0,0,0,0,0,0,0,0,0,0,0,0,0,0,0,0,0,0
12,550,30444,34196,31718,30444,34196,31718,30956,34145,31653,34802,23977,45068,35981,5625,62236,39983,4476,58943,1,1,1,0,0,0,1,0,1,1,0,0,0,0,0,0,0,0,0,0,0,0,0,0,0,0,0,0,0,0
13,600,29932,34245,31784,29932,34245,31784,30444,34196,31718,35286,23919,44969,36338,5340,62007,40376,4303,58649,1,1,1,0,0,0,1,0,1,1,0,0,0,0,0,0,0,0,0,0,0,0,0,0,0,0,0,0,0,0
14,650,29421,34292,31851,29421,34292,31851,29932,34245,31784,35770,23863,44866,36695,5062,61771,40769,4138,58351,1,1,1,0,0,0,1,0,1,1,0,0,0,0,0,0,0,0,0,0,0,0,0,0,0,0,0,0,0,0
15,700,28911,34338,31920,28911,34338,31920,29421,34292,31851,36253,23809,44762,37052,4791,61528,41160,3981,58046,1,1,1,0,0,0,1,0,1,1,0,0,0,0,0,0,0,0,0,0,0,0,0,0,0,0,0,0,0,0
16,750,28402,34382,31991,28402,34382,31991,28911,34338,31920,36736,23756,44655,37409,4526,61278,41550,3830,57736,1,1,1,0,0,0,1,0,1,1,0,0,0,0,0,0,0,0,0,0,0,0,0,0,0,0,0,0,0,0
17,800,27894,34425,32063,27894,34425,32063,28402,34382,31991,37217,23706,44546,37767,4268,61021,41938,3688,57421,1,1,1,0,0,0,1,0,1,1,0,0,0,0,0,0,0,0,0,0,0,0,0,0,0,0,0,0,0,0
18,850,27387,34466,32136,27387,34466,32136,27894,34425,32063,37698,23657,44435,38124,4018,60756,42325,3552,57100,1,1,1,0,0,0,1,0,1,1,0,0,0,0,0,0,0,0,0,0,0,0,0,0,0,0,0,0,0,0
19,900,26881,34505,32211,26881,34505,32211,27387,34466,32136,38177,23611,44322,38481,3774,60485,42710,3424,56775,1,1,1,0,0,0,1,0,1,1,0,0,0,0,0,0,0,0,0,0,0,0,0,0,0,0,0,0,0,0
20,950,26377,34542,32287,26377,34542,32287,26881,34505,32211,38655,23566,44206,38839,3538,60208,43094,3304,56444,1,1,1,0,0,0,1,0,1,1,0,0,0,0,0,0,0,0,0,0,0,0,0,0,0,0,0,0,0,0
21,1000,25874,34578,32365,25874,34578,32365,26377,34542,32287,39132,23523,44088,39196,3309,59923,43476,3191,56109,1,1,1,0,0,0,1,0,1,1,0,0,0,0,0,0,0,0,0,0,0,0,0,0,0,0,0,0,0,0
22,1050,25373,34612,32444,25373,34612,32444,25874,34578,32365,39607,23482,43969,39552,3087,59631,43856,3086,55768,1,1,1,0,0,0,1,0,1,1,0,0,0,0,0,0,0,0,0,0,0,0,0,0,0,0,0,0,0,0
23,1100,24874,34645,32524,24874,34645,32524,25373,34612,32444,40081,23443,43847,39908,2873,59333,44234,2989,55423,1,1,1,0,0,0,1,0,1,1,0,0,0,0,0,0,0,0,0,0,0,0,0,0,0,0,0,0,0,0
24,1150,24377,34675,32605,24377,34675,32605,24874,34645,32524,40553,23407,43723,40263,2666,59029,44610,2899,55073,1,1,1,0,0,0,1,0,1,1,0,0,0,0,0,0,0,0,0,0,0,0,0,0,0,0,0,0,0,0
25,1200,23881,34704,32688,23881,34704,32688,24377,34675,32605,41023,23372,43597,40618,2466,58717,44984,2817,54718,1,1,1,0,0,0,1,0,1,1,0,0,0,0,0,0,0,0,0,0,0,0,0,0,0,0,0,0,0,0
26,1250,23388,34732,32773,23388,34732,32773,23881,34704,32688,41491,23339,43469,40973,2273,58400,45356,2742,54359,1,1,1,0,0,0,1,0,1,1,0,0,0,0,0,0,0,0,0,0,0,0,0,0,0,0,0,0,0,0
27,1300,22898,34757,32858,22898,34757,32858,23388,34732,32773,41956,23308,43339,41326,2089,58076,45726,2675,53995,1,1,1,0,0,0,1,0,1,1,0,0,0,0,0,0,0,0,0,0,0,0,0,0,0,0,0,0,0,0
28,1350,22409,34781,32945,22409,34781,32945,22898,34757,32858,42420,23279,43207,41678,1912,57746,46093,2616,53627,1,1,1,0,0,0,1,0,1,1,0,0,0,0,0,0,0,0,0,0,0,0,0,0,0,0,0,0,0,0
29,1400,21923,34803,33033,21923,34803,33033,22409,34781,32945,42881,23252,43074,42030,1742,57410,46457,2565,53255,1,1,1,0,0,0,1,0,1,1,0,0,0,0,0,0,0,0,0,0,0,0,0,0,0,0,0,0,0,0
30,1450,21440,34824,33122,21440,34824,33122,21923,34803,33033,43340,23228,42938,42380,1581,57068,46819,2521,52878,1,1,1,0,0,0,1,0,1,1,0,0,0,0,0,0,0,0,0,0,0,0,0,0,0,0,0,0,0,0
31,1500,20960,34842,33212,20960,34842,33212,21440,34824,33122,43796,23205,42801,42729,1427,56720,47178,2486,52497,1,1,1,0,0,0,1,0,1,1,0,0,0,0,0,0,0,0,0,0,0,0,0,0,0,0,0,0,0,0
32,1550,20482,34859,33304,20482,34859,33304,20960,34842,33212,44250,23184,42662,43077,1280,56366,47535,2458,52113,1,1,1,0,0,0,1,0,1,1,0,0,0,0,0,0,0,0,0,0,0,0,0,0,0,0,0,0,0,0
33,1600,20008,34874,33396,20008,34874,33396,20482,34859,33304,44700,23166,42521,43424,1142,56006,47888,2437,51724,1,1,1,0,0,0,1,0,1,1,0,0,0,0,0,0,0,0,0,0,0,0,0,0,0,0,0,0,0,0
34,1650,19536,34887,33490,19536,34887,33490,20008,34874,33396,45148,23149,42378,43769,1011,55640,48239,2425,51332,1,1,1,0,0,0,1,0,1,1,0,0,0,0,0,0,0,0,0,0,0,0,0,0,0,0,0,0,0,0
35,1700,19068,34899,33585,19068,34899,33585,19536,34887,33490,45593,23135,42234,44112,888,55269,48587,2420,50936,1,1,1,0,0,0,1,0,1,1,0,0,0,0,0,0,0,0,0,0,0,0,0,0,0,0,0,0,0,0
36,1750,18603,34909,33681,18603,34909,33681,19068,34899,33585,46035,23122,42088,44454,773,54892,48931,2423,50536,1,1,1,0,0,0,1,0,1,1,0,0,0,0,0,0,0,0,0,0,0,0,0,0,0,0,0,0,0,0
37,1800,18142,34917,33778,18142,34917,33778,18603,34909,33681,46473,23112,41940,44794,666,54509,49272,2434,50133,1,1,1,0,0,0,1,0,1,1,0,0,0,0,0,0,0,0,0,0,0,0,0,0,0,0,0,0,0,0
38,1850,17684,34923,33876,17684,34923,33876,18142,34917,33778,46908,23104,41791,45133,566,54122,49610,2453,49726,1,1,1,0,0,0,1,0,1,1,0,0,0,0,0,0,0,0,0,0,0,0,0,0,0,0,0,0,0,0
39,1900,17230,34927,33975,17230,34927,33975,17684,34923,33876,47340,23097,41641,45469,475,53729,49945,2479,49316,1,1,1,0,0,0,1,0,1,1,0,0,0,0,0,0,0,0,0,0,0,0,0,0,0,0,0,0,0,0
40,1950,16780,34930,34075,16780,34930,34075,17230,34927,33975,47768,23093,41488,45804,392,53330,50276,2513,48903,1,1,1,0,0,0,1,0,1,1,0,0,0,0,0,0,0,0,0,0,0,0,0,0,0,0,0,0,0,0
41,2000,16333,34931,34175,16333,34931,34175,16780,34930,34075,48193,23091,41335,46137,316,52927,50603,2555,48486,1,1,1,0,0,0,1,0,1,1,0,0,0,0,0,0,0,0,0,0,0,0,0,0,0,0,0,0,0,0
42,2050,15891,34930,34277,15891,34930,34277,16333,34931,34175,48613,23091,41180,46467,249,52519,50927,2605,48067,1,1,1,0,0,0,1,0,1,1,0,0,0,0,0,0,0,0,0,0,0,0,0,0,0,0,0,0,0,0
43,2100,15453,34927,34380,15453,34927,34380,15891,34930,34277,49030,23093,41023,46796,189,52106,51248,2663,47644,1,1,1,0,0,0,1,0,1,1,0,0,0,0,0,0,0,0,0,0,0,0,0,0,0,0,0,0,0,0
44,2150,15019,34923,34483,15019,34923,34483,15453,34927,34380,49443,23097,40866,47122,138,51688,51564,2728,47219,1,1,1,0,0,0,1,0,1,1,0,0,0,0,0,0,0,0,0,0,0,0,0,0,0,0,0,0,0,0
45,2200,14589,34917,34588,14589,34917,34588,15019,34923,34483,49852,23103,40706,47445,95,51265,51877,2801,46791,1,1,1,0,0,0,1,0,1,1,0,0,0,0,0,0,0,0,0,0,0,0,0,0,0,0,0,0,0,0
46,2250,14164,34909,34693,14164,34909,34693,14589,34917,34588,50256,23112,40546,47767,60,50838,52186,2881,46361,1,1,1,0,0,0,1,0,1,1,0,0,0,0,0,0,0,0,0,0,0,0,0,0,0,0,0,0,0,0
47,2300,13744,34899,34799,13744,34899,34799,14164,34909,34693,50657,23122,40384,48086,32,50407,52490,2969,45928,1,1,1,0,0,0,1,0,1,1,0,0,0,0,0,0,0,0,0,0,0,0,0,0,0,0,0,0,0,0
48,2350,13328,34887,34906,13328,34887,34906,13744,34899,34799,51053,23135,40222,48402,13,49971,52791,3065,45493,1,1,1,0,0,0,1,0,1,1,0,0,0,0,0,0,0,0,0,0,0,0,0,0,0,0,0,0,0,0
49,2400,12917,34874,35013,12917,34874,35013,13328,34887,34906,51444,23149,40058,48715,2,49531,53087,3169,45055,1,1,1,0,0,0,1,0,1,1,0,0,0,0,0,0,0,0,0,0,0,0,0,0,0,0,0,0,0,0
50,2450,12510,34859,35121,12510,34859,35121,12917,34874,35013,51831,23166,39893,49026,0,49086,53379,3280,44616,1,1,1,0,0,0,1,0,1,1,0,0,0,0,0,0,0,0,0,0,0,0,0,0,0,0,0,0,0,0
51,2500,12109,34842,35230,12109,34842,35230,12510,34859,35121,52213,23184,39727,49334,5,48638,53667,3399,44174,1,1,1,0,0,0,1,0,1,1,0,0,0,0,0,0,0,0,0,0,0,0,0,0,0,0,0,0,0,0
52,2550,11713,34824,35340,11713,34823,35340,12109,34842,35230,52591,23205,39560,49639,18,48186,53951,3525,43730,1,1,1,0,0,0,1,0,1,1,0,0,0,0,0,0,0,0,0,0,0,0,0,0,0,0,0,0,0,0
53,2600,11322,34803,35450,11322,34803,35450,11713,34824,35340,52963,23227,39391,49941,39,47730,54230,3659,43284,1,1,1,0,0,0,1,0,1,1,0,0,0,0,0,0,0,0,0,0,0,0,0,0,0,0,0,0,0,0
54,2650,10936,34781,35561,10936,34781,35561,11322,34803,35450,53331,23252,39222,50240,69,47270,54504,3800,42837,1,1,1,0,0,0,1,0,1,1,0,0,0,0,0,0,0,0,0,0,0,0,0,0,0,0,0,0,0,0
55,2700,10555,34757,35672,10555,34757,35672,10936,34781,35561,53693,23279,39052,50536,107,46807,54774,3949,42388,1,1,1,0,0,0,1,0,1,1,0,0,0,0,0,0,0,0,0,0,0,0,0,0,0,0,0,0,0,0
56,2750,10180,34732,35784,10180,34732,35784,10555,34757,35672,54051,23308,38881,50829,152,46340,55039,4105,41938,1,1,1,0,0,0,1,0,1,1,0,0,0,0,0,0,0,0,0,0,0,0,0,0,0,0,0,0,0,0
57,2800,9811,34704,35896,9811,34704,35896,10180,34732,35784,54403,23338,38710,51119,206,45870,55300,4268,41486,1,1,1,0,0,0,1,0,1,1,0,0,0,0,0,0,0,0,0,0,0,0,0,0,0,0,0,0,0,0
58,2850,9447,34675,36009,9447,34675,36009,9811,34704,35896,54750,23371,38537,51405,267,45397,55556,4439,41033,1,1,1,0,0,0,1,0,1,1,0,0,0,0,0,0,0,0,0,0,0,0,0,0,0,0,0,0,0,0
59,2900,9089,34645,36123,9089,34645,36123,9447,34675,36009,55092,23406,38364,51687,337,44920,55807,4617,40578,1,1,1,0,0,0,1,0,1,1,0,0,0,0,0,0,0,0,0,0,0,0,0,0,0,0,0,0,0,0
60,2950,8737,34612,36237,8737,34612,36237,9089,34645,36123,55428,23443,38190,51967,415,44441,56053,4803,40123,1,1,1,0,0,0,1,0,1,1,0,0,0,0,0,0,0,0,0,0,0,0,0,0,0,0,0,0,0,0
61,3000,8390,34578,36351,8390,34578,36351,8737,34612,36237,55759,23482,38016,52242,500,43959,56294,4995,39667,1,1,1,0,0,0,1,0,1,1,0,0,0,0,0,0,0,0,0,0,0,0,0,0,0,0,0,0,0,0
62,3050,8050,34542,36465,8050,34542,36465,8390,34578,36351,56084,23522,37841,52515,594,43474,56530,5195,39209,1,1,1,0,0,0,1,0,1,1,0,0,0,0,0,0,0,0,0,0,0,0,0,0,0,0,0,0,0,0
63,3100,7716,34505,36580,7716,34505,36580,8050,34542,36465,56403,23565,37665,52783,696,42986,56761,5402,38751,1,1,1,0,0,0,1,0,1,1,0,0,0,0,0,0,0,0,0,0,0,0,0,0,0,0,0,0,0,0
64,3150,7388,34465,36696,7388,34465,36696,7716,34505,36580,56716,23610,37489,53048,805,42496,56986,5616,38293,1,1,1,0,0,0,1,0,1,1,0,0,0,0,0,0,0,0,0,0,0,0,0,0,0,0,0,0,0,0
65,3200,7066,34425,36811,7066,34424,36811,7388,34465,36696,57024,23657,37312,53309,922,42003,57207,5836,37834,1,1,1,0,0,0,1,0,1,1,0,0,0,0,0,0,0,0,0,0,0,0,0,0,0,0,0,0,0,0
66,3250,6750,34382,36927,6750,34382,36927,7066,34425,36811,57326,23705,37135,53565,1048,41508,57422,6064,37374,1,1,1,0,0,0,1,0,1,1,0,0,0,0,0,0,0,0,0,0,0,0,0,0,0,0,0,0,0,0
67,3300,6441,34338,37043,6441,34338,37043,6750,34382,36927,57621,23756,36957,53819,1181,41011,57632,6299,36915,1,1,1,0,0,0,1,0,1,1,0,0,0,0,0,0,0,0,0,0,0,0,0,0,0,0,0,0,0,0
68,3350,6138,34292,37160,6138,34292,37160,6441,34338,37043,57911,23808,36780,54068,1321,40512,57837,6540,36455,1,1,1,0,0,0,1,0,1,1,0,0,0,0,0,0,0,0,0,0,0,0,0,0,0,0,0,0,0,0
69,3400,5842,34245,37276,5842,34245,37276,6138,34292,37160,58194,23862,36601,54313,1470,40011,58036,6789,35995,1,1,1,0,0,0,1,0,1,1,0,0,0,0,0,0,0,0,0,0,0,0,0,0,0,0,0,0,0,0
70,3450,5552,34196,37393,5552,34196,37393,5842,34245,37276,58471,23919,36423,54553,1626,39508,58230,7044,35535,1,1,1,0,0,0,1,0,1,1,0,0,0,0,0,0,0,0,0,0,0,0,0,0,0,0,0,0,0,0
71,3500,5270,34145,37509,5270,34145,37509,5552,34196,37393,58742,23977,36244,54790,1790,39004,58418,7305,35075,1,1,1,0,0,0,1,0,1,1,0,0,0,0,0,0,0,0,0,0,0,0,0,0,0,0,0,0,0,0
72,3550,4993,34093,37626,4993,34093,37626,5270,34145,37509,59007,24036,36065,55022,1962,38498,58601,7574,34616,1,1,1,0,0,0,1,0,1,1,0,0,0,0,0,0,0,0,0,0,0,0,0,0,0,0,0,0,0,0
73,3600,4724,34039,37743,4724,34039,37743,4993,34093,37626,59265,24098,35886,55251,2141,37990,58778,7848,34157,1,1,1,0,0,0,1,0,1,1,0,0,0,0,0,0,0,0,0,0,0,0,0,0,0,0,0,0,0,0
74,3650,4462,33984,37860,4462,33984,37860,4724,34039,37743,59516,24162,35707,55474,2328,37482,58950,8130,33699,1,1,1,0,0,0,1,0,1,1,0,0,0,0,0,0,0,0,0,0,0,0,0,0,0,0,0,0,0,0
75,3700,4206,33927,37977,4206,33927,37977,4462,33984,37860,59761,24227,35528,55694,2523,36972,59116,8417,33241,1,1,1,0,0,0,1,0,1,1,0,0,0,0,0,0,0,0,0,0,0,0,0,0,0,0,0,0,0,0
76,3750,3958,33868,38094,3958,33868,38094,4206,33927,37977,60000,24294,35349,55909,2724,36461,59276,8711,32784,1,1,1,0,0,0,1,0,1,1,0,0,0,0,0,0,0,0,0,0,0,0,0,0,0,0,0,0,0,0
77,3800,3717,33808,38211,3717,33808,38211,3958,33868,38094,60231,24363,35170,56119,2934,35949,59430,9011,32328,1,1,1,0,0,0,1,0,1,1,0,0,0,0,0,0,0,0,0,0,0,0,0,0,0,0,0,0,0,0
78,3850,3482,33747,38328,3482,33747,38328,3717,33808,38211,60456,24434,34991,56325,3150,35437,59578,9317,31872,1,1,1,0,0,0,1,0,1,1,0,0,0,0,0,0,0,0,0,0,0,0,0,0,0,0,0,0,0,0
79,3900,3255,33684,38445,3255,33684,38445,3482,33747,38328,60675,24506,34813,56526,3374,34924,59721,9630,31418,1,1,1,0,0,0,1,0,1,1,0,0,0,0,0,0,0,0,0,0,0,0,0,0,0,0,0,0,0,0
80,3950,3036,33620,38561,3036,33620,38561,3255,33684,38445,60886,24581,34634,56723,3605,34410,59858,9948,30965,1,1,1,0,0,0,1,0,1,1,0,0,0,0,0,0,0,0,0,0,0,0,0,0,0,0,0,0,0,0
81,4000,2823,33554,38678,2823,33554,38678,3036,33620,38561,61090,24656,34456,56914,3843,33896,59989,10272,30514,1,1,1,0,0,0,1,0,1,1,0,0,0,0,0,0,0,0,0,0,0,0,0,0,0,0,0,0,0,0
82,4050,2618,33486,38794,2618,33486,38794,2823,33554,38678,61288,24734,34277,57101,4089,33382,60114,10602,30063,1,1,1,0,0,0,1,0,1,1,0,0,0,0,0,0,0,0,0,0,0,0,0,0,0,0,0,0,0,0
83,4100,2421,33418,38910,2421,33418,38910,2618,33486,38794,61478,24813,34100,57284,4341,32867,60233,10938,29615,1,1,1,0,0,0,1,0,1,1,0,0,0,0,0,0,0,0,0,0,0,0,0,0,0,0,0,0,0,0
84,4150,2231,33348,39026,2231,33348,39026,2421,33418,38910,61662,24894,33922,57461,4601,32353,60346,11280,29168,1,1,1,0,0,0,1,0,1,1,0,0,0,0,0,0,0,0,0,0,0,0,0,0,0,0,0,0,0,0
85,4200,2048,33276,39141,2048,33276,39141,2231,33348,39026,61838,24977,33745,57633,4867,31839,60453,11627,28723,1,1,1,0,0,0,1,0,1,1,0,0,0,0,0,0,0,0,0,0,0,0,0,0,0,0,0,0,0,0
86,4250,1873,33203,39256,1873,33203,39256,2048,33276,39141,62008,25061,33568,57801,5141,31324,60554,11980,28279,1,1,1,0,0,0,1,0,1,1,0,0,0,0,0,0,0,0,0,0,0,0,0,0,0,0,0,0,0,0
87,4300,1705,33129,39371,1705,33129,39371,1873,33203,39256,62170,25146,33392,57964,5421,30811,60649,12338,27838,1,1,1,0,0,0,1,0,1,1,0,0,0,0,0,0,0,0,0,0,0,0,0,0,0,0,0,0,0,0
88,4350,1545,33053,39485,1545,33053,39485,1705,33129,39371,62325,25234,33216,58121,5708,30297,60737,12701,27398,1,1,1,0,0,0,1,0,1,1,0,0,0,0,0,0,0,0,0,0,0,0,0,0,0,0,0,0,0,0
89,4400,1393,32977,39599,1393,32977,39599,1545,33053,39485,62472,25323,33041,58274,6002,29785,60820,13070,26961,1,1,1,0,0,0,1,0,1,1,0,0,0,0,0,0,0,0,0,0,0,0,0,0,0,0,0,0,0,0
90,4450,1249,32898,39713,1249,32898,39713,1393,32977,39599,62613,25413,32867,58421,6302,29272,60896,13444,26526,1,1,1,0,0,0,1,0,1,1,0,0,0,0,0,0,0,0,0,0,0,0,0,0,0,0,0,0,0,0
91,4500,1112,32819,39826,1112,32819,39826,1249,32898,39713,62746,25505,32693,58563,6609,28761,60967,13823,26093,1,1,1,0,0,0,1,0,1,1,0,0,0,0,0,0,0,0,0,0,0,0,0,0,0,0,0,0,0,0
92,4550,983,32738,39939,983,32738,39939,1112,32819,39826,62871,25598,32520,58700,6922,28251,61031,14207,25663,1,1,1,0,0,0,1,0,1,1,0,0,0,0,0,0,0,0,0,0,0,0,0,0,0,0,0,0,0,0
93,4600,862,32656,40051,862,32656,40051,983,32738,39939,62990,25693,32348,58832,7242,27741,61089,14596,25236,1,1,1,0,0,0,1,0,1,1,0,0,0,0,0,0,0,0,0,0,0,0,0,0,0,0,0,0,0,0
94,4650,749,32573,40163,749,32573,40163,862,32656,40051,63101,25789,32176,58959,7568,27233,61140,14989,24811,1,1,1,0,0,0,1,0,1,1,0,0,0,0,0,0,0,0,0,0,0,0,0,0,0,0,0,0,0,0
95,4700,643,32489,40274,643,32489,40274,749,32573,40163,63204,25887,32005,59080,7900,26727,61186,15387,24389,1,1,1,0,0,0,1,0,1,1,0,0,0,0,0,0,0,0,0,0,0,0,0,0,0,0,0,0,0,0
96,4750,546,32403,40385,546,32403,40385,643,32489,40274,63300,25986,31836,59196,8238,26222,61225,15790,23970,1,1,1,0,0,0,1,0,1,1,0,0,0,0,0,0,0,0,0,0,0,0,0,0,0,0,0,0,0,0
97,4800,456,32317,40495,456,32316,40495,546,32403,40385,63389,26086,31667,59307,8582,25718,61258,16198,23554,1,1,1,0,0,0,1,0,1,1,0,0,0,0,0,0,0,0,0,0,0,0,0,0,0,0,0,0,0,0
98,4850,375,32229,40604,375,32229,40604,456,32316,40495,63470,26188,31499,59412,8932,25216,61285,16609,23141,1,1,1,0,0,0,1,0,1,1,0,0,0,0,0,0,0,0,0,0,0,0,0,0,0,0,0,0,0,0
99,4900,301,32140,40712,301,32140,40712,375,32229,40604,63543,26291,31332,59512,9288,24716,61305,17025,22732,1,1,1,0,0,0,1,0,1,1,0,0,0,0,0,0,0,0,0,0,0,0,0,0,0,0,0,0,0,0
100,4950,236,32050,40820,236,32050,40820,301,32140,40712,63609,26395,31166,59606,9650,24218,61320,17446,22325,1,1,1,0,0,0,1,0,1,1,0,0,0,0,0,0,0,0,0,0,0,0,0,0,0,0,0,0,0,0
101,5000,178,31959,40928,178,31959,40928,236,32050,40820,63667,26500,31001,59695,10018,23723,61328,17870,21923,1,1,1,0,0,0,1,0,1,1,0,0,0,0,0,0,0,0,0,0,0,0,0,0,0,0,0,0,0,0
102,5050,128,31866,41034,128,31866,41034,178,31959,40928,63718,26607,30837,59779,10391,23229,61329,18298,21523,1,1,1,0,0,0,1,0,1,1,0,0,0,0,0,0,0,0,0,0,0,0,0,0,0,0,0,0,0,0
103,5100,87,31773,41140,87,31773,41140,128,31866,41034,63761,26715,30675,59857,10770,22738,61325,18730,21128,1,1,1,0,0,0,1,0,1,1,0,0,0,0,0,0,0,0,0,0,0,0,0,0,0,0,0,0,0,0
104,5150,53,31679,41245,53,31679,41245,87,31773,41140,63797,26824,30514,59930,11154,22249,61314,19166,20736,1,1,1,0,0,0,1,0,1,1,0,0,0,0,0,0,0,0,0,0,0,0,0,0,0,0,0,0,0,0
105,5200,28,31584,41349,28,31584,41349,53,31679,41245,63825,26934,30354,59997,11543,21763,61297,19606,20348,1,1,1,0,0,0,1,0,1,1,0,0,0,0,0,0,0,0,0,0,0,0,0,0,0,0,0,0,0,0
106,5250,10,31488,41452,10,31488,41452,28,31584,41349,63845,27046,30195,60059,11938,21280,61273,20049,19963,1,1,1,0,0,0,1,0,1,1,0,0,0,0,0,0,0,0,0,0,0,0,0,0,0,0,0,0,0,0
